T59E8 8735:067 SEGGER J-Link V6.46 Log File (0000ms, 5264ms total)
T59E8 8735:067 DLL Compiled: May 23 2019 17:49:56 (0000ms, 5264ms total)
T59E8 8735:067 Logging started @ 2020-04-28 17:31 (0000ms, 5264ms total)
T59E8 8735:067 JLINK_SetWarnOutHandler(...) (0000ms, 5264ms total)
T59E8 8735:067 JLINK_OpenEx(...)
Firmware: J-Link V9 compiled May 17 2019 09:50:41
Hardware: V9.40
S/N: 59404633
Feature(s): RDI, GDB, FlashDL, FlashBP, JFlash
TELNET listener socket opened on port 19021Device "CORTEX-M0+" selected.WEBSRV 
Starting webserver (0089ms, 5353ms total)
T59E8 8735:067 WEBSRV Webserver running on local port 19080 (0090ms, 5354ms total)
T59E8 8735:067   returns O.K. (0090ms, 5354ms total)
T59E8 8735:157 JLINK_GetEmuCaps()  returns 0xB9FF7BBF (0000ms, 5354ms total)
T59E8 8735:159 JLINK_TIF_GetAvailable(...) (0003ms, 5357ms total)
T59E8 8735:162 JLINK_SetErrorOutHandler(...) (0000ms, 5357ms total)
T59E8 8735:162 JLINK_ExecCommand("ProjectFile = "G:\工作\燃气检测软件\简单代码框架1\LSD4WN1031-01D0_Firmware_Rev1.0\project\Application Firmware\V1.0\MDK\JLinkSettings.ini"", ...). Device "CORTEX-M0+" selected.  returns 0x00 (0005ms, 5362ms total)
T59E8 8735:171 JLINK_ExecCommand("Device = HC32L110C6UA", ...). Device "CORTEX-M0+" selected.  returns 0x00 (0006ms, 5368ms total)
T59E8 8735:177 JLINK_ExecCommand("DisableConnectionTimeout", ...).   returns 0x01 (0000ms, 5368ms total)
T59E8 8735:177 JLINK_GetHardwareVersion()  returns 0x16F30 (0000ms, 5368ms total)
T59E8 8735:177 JLINK_GetDLLVersion()  returns 64600 (0000ms, 5368ms total)
T59E8 8735:177 JLINK_GetFirmwareString(...) (0000ms, 5368ms total)
T59E8 8735:190 JLINK_GetDLLVersion()  returns 64600 (0000ms, 5368ms total)
T59E8 8735:190 JLINK_GetCompileDateTime() (0000ms, 5368ms total)
T59E8 8735:195 JLINK_GetFirmwareString(...) (0000ms, 5368ms total)
T59E8 8735:199 JLINK_GetHardwareVersion()  returns 0x16F30 (0000ms, 5368ms total)
T59E8 8735:216 JLINK_TIF_Select(JLINKARM_TIF_SWD)  returns 0x00 (0007ms, 5375ms total)
T59E8 8735:223 JLINK_SetSpeed(5000) (0002ms, 5377ms total)
T59E8 8735:226 JLINK_GetId() >0x10B TIF>Found SW-DP with ID 0x0BC11477 >0x0D TIF> >0x28 TIF> >0x0D TIF> >0x28 TIF> >0x0D TIF> >0x28 TIF> >0x0D TIF> >0x28 TIF> >0x0D TIF> >0x21 TIF> >0x0D TIF> >0x28 TIF>Scanning AP map to find all available APs >0x0D TIF> >0x28 TIF> >0x0D TIF> >0x21 TIF> >0x0D TIF> >0x21 TIF> >0x0D TIF> >0x28 TIF> >0x0D TIF> >0x21 TIF> >0x0D TIF> >0x21 TIF>AP[1]: Stopped AP scan as end of AP map has been reachedAP[0]: AHB-AP (IDR: 0x04770031)Iterating through AP map to find AHB-AP to use
 >0x42 TIF> >0x28 TIF> >0x0D TIF> >0x28 TIF> >0x0D TIF> >0x21 TIF> >0x0D TIF> >0x21 TIF> >0x42 TIF> >0x28 TIF> >0x0D TIF> >0x28 TIF> >0x0D TIF> >0x28 TIF> >0x0D TIF> >0x21 TIF> >0x0D TIF> >0x21 TIF>AP[0]: Core foundAP[0]: AHB-AP ROM base: 0xE00FF000 >0x0D TIF> >0x28 TIF> >0x0D TIF> >0x28 TIF> >0x0D TIF> >0x28 TIF> >0x0D TIF> >0x21 TIF> >0x0D TIF> >0x21 TIF>CPUID register: 0x410CC601. Implementer code: 0x41 (ARM)Found Cortex-M0 r0p1, Little endian. -- Max. mem block: 0x00010F28
 -- CPU_ReadMem(4 bytes @ 0xE000EDF0) -- CPU_WriteMem(4 bytes @ 0xE000EDF0) -- CPU_ReadMem(4 bytes @ 0xE0002000)FPUnit: 4 code (BP) slots and 0 literal slots -- CPU_ReadMem(4 bytes @ 0xE000EDFC) -- CPU_WriteMem(4 bytes @ 0xE000EDFC) -- CPU_ReadMem(4 bytes @ 0xE0001000) -- CPU_WriteMem(4 bytes @ 0xE0001000)CoreSight components:ROMTbl[0] @ E00FF000 -- CPU_ReadMem(16 bytes @ 0xE00FF000) -- CPU_ReadMem(16 bytes @ 0xE000EFF0) -- CPU_ReadMem(16 bytes @ 0xE000EFE0)
ROMTbl[0][0]: E000E000, CID: B105E00D, PID: 000BB008 SCS -- CPU_ReadMem(16 bytes @ 0xE0001FF0) -- CPU_ReadMem(16 bytes @ 0xE0001FE0)ROMTbl[0][1]: E0001000, CID: B105E00D, PID: 000BB00A DWT -- CPU_ReadMem(16 bytes @ 0xE0002FF0) -- CPU_ReadMem(16 bytes @ 0xE0002FE0)ROMTbl[0][2]: E0002000, CID: B105E00D, PID: 000BB00B FPB >0x0D TIF> >0x21 TIF>  returns 0x0BC11477 (0321ms, 5698ms total)
T59E8 8735:547 JLINK_GetDLLVersion()  returns 64600 (0000ms, 5698ms total)
T59E8 8735:547 JLINK_CORE_GetFound()  returns 0x60000FF (0000ms, 5698ms total)
T59E8 8735:547 JLINK_GetDebugInfo(0x100 = JLINKARM_ROM_TABLE_ADDR_INDEX) -- Value=0xE00FF000  returns 0x00 (0000ms, 5698ms total)
T59E8 8735:551 JLINK_GetDebugInfo(0x100 = JLINKARM_ROM_TABLE_ADDR_INDEX) -- Value=0xE00FF000  returns 0x00 (0000ms, 5698ms total)
T59E8 8735:551 JLINK_GetDebugInfo(0x101 = JLINKARM_DEBUG_INFO_ETM_ADDR_INDEX) -- Value=0x00000000  returns 0x00 (0000ms, 5698ms total)
T59E8 8735:551 JLINK_ReadMemEx(0xE0041FF0, 0x0010 Bytes, ..., Flags = 0x02000004) -- CPU_ReadMem(16 bytes @ 0xE0041FF0) - Data: 00 00 00 00 00 00 00 00 00 00 00 00 00 00 00 00  returns 0x10 (0003ms, 5701ms total)
T59E8 8735:554 JLINK_GetDebugInfo(0x102 = JLINKARM_DEBUG_INFO_MTB_ADDR_INDEX) -- Value=0x00000000  returns 0x00 (0000ms, 5701ms total)
T59E8 8735:554 JLINK_GetDebugInfo(0x103 = JLINKARM_DEBUG_INFO_TPIU_ADDR_INDEX) -- Value=0x00000000  returns 0x00 (0000ms, 5701ms total)
T59E8 8735:554 JLINK_ReadMemEx(0xE0040FF0, 0x0010 Bytes, ..., Flags = 0x02000004) -- CPU_ReadMem(16 bytes @ 0xE0040FF0) - Data: 00 00 00 00 00 00 00 00 00 00 00 00 00 00 00 00  returns 0x10 (0002ms, 5703ms total)
T59E8 8735:556 JLINK_GetDebugInfo(0x104 = JLINKARM_DEBUG_INFO_ITM_ADDR_INDEX) -- Value=0xE0000000  returns 0x00 (0000ms, 5703ms total)
T59E8 8735:556 JLINK_GetDebugInfo(0x105 = JLINKARM_DEBUG_INFO_DWT_ADDR_INDEX) -- Value=0xE0001000  returns 0x00 (0000ms, 5703ms total)
T59E8 8735:556 JLINK_GetDebugInfo(0x106 = JLINKARM_DEBUG_INFO_FPB_ADDR_INDEX) -- Value=0xE0002000  returns 0x00 (0000ms, 5703ms total)
T59E8 8735:556 JLINK_GetDebugInfo(0x107 = JLINKARM_DEBUG_INFO_NVIC_ADDR_INDEX) -- Value=0xE000E000  returns 0x00 (0000ms, 5703ms total)
T59E8 8735:556 JLINK_GetDebugInfo(0x10C = JLINKARM_DEBUG_INFO_DBG_ADDR_INDEX) -- Value=0xE000EDF0  returns 0x00 (0000ms, 5703ms total)
T59E8 8735:556 JLINK_GetDebugInfo(0x01 = Unknown) -- Value=0x00000000  returns 0x00 (0000ms, 5703ms total)
T59E8 8735:556 JLINK_ReadMemU32(0xE000ED00, 0x0001 Items, ...) -- CPU_ReadMem(4 bytes @ 0xE000ED00) - Data: 01 C6 0C 41  returns 1 (0002ms, 5705ms total)
T59E8 8735:558 JLINK_GetDebugInfo(0x10F = JLINKARM_DEBUG_INFO_HAS_CORTEX_M_SECURITY_EXT_INDEX) -- Value=0x00000000  returns 0x00 (0000ms, 5705ms total)
T59E8 8735:558 JLINK_SetResetType(JLINKARM_CM3_RESET_TYPE_NORMAL)  returns JLINKARM_CM3_RESET_TYPE_NORMAL (0000ms, 5705ms total)
T59E8 8735:558 JLINK_Reset() -- CPU is running -- CPU_WriteMem(4 bytes @ 0xE000EDF0) -- CPU is running -- CPU_WriteMem(4 bytes @ 0xE000EDFC)Reset: Halt core after reset via DEMCR.VC_CORERESET. >0x35 TIF>Reset: Reset device via AIRCR.SYSRESETREQ. -- CPU is running -- CPU_WriteMem(4 bytes @ 0xE000ED0C) >0x0D TIF> >0x28 TIF> -- CPU_ReadMem(4 bytes @ 0xE000EDF0) -- CPU_ReadMem(4 bytes @ 0xE000EDF0) -- CPU is running -- CPU_WriteMem(4 bytes @ 0xE000EDF0) -- CPU is running -- CPU_WriteMem(4 bytes @ 0xE000EDFC)
 -- CPU_ReadMem(4 bytes @ 0xE000EDF0) -- CPU_WriteMem(4 bytes @ 0xE0002000) -- CPU_ReadMem(4 bytes @ 0xE000EDFC) -- CPU_ReadMem(4 bytes @ 0xE0001000) -- CPU_WriteMem(4 bytes @ 0xE0001000) (0106ms, 5811ms total)
T59E8 8735:665 JLINK_Halt()  returns 0x00 (0000ms, 5811ms total)
T59E8 8735:665 JLINK_ReadMemU32(0xE000EDF0, 0x0001 Items, ...) -- CPU_ReadMem(4 bytes @ 0xE000EDF0) - Data: 03 00 03 00  returns 1 (0002ms, 5813ms total)
T59E8 8735:667 JLINK_WriteU32(0xE000EDF0, 0xA05F0003) -- CPU_WriteMem(4 bytes @ 0xE000EDF0)  returns 0 (0002ms, 5815ms total)
T59E8 8735:669 JLINK_WriteU32(0xE000EDFC, 0x01000000) -- CPU_WriteMem(4 bytes @ 0xE000EDFC)  returns 0 (0003ms, 5818ms total)
T59E8 8735:691 JLINK_GetHWStatus(...)  returns 0x00 (0002ms, 5820ms total)
T59E8 8735:705 JLINK_GetNumBPUnits(Type = 0xFFFFFF00)  returns 0x04 (0000ms, 5820ms total)
T59E8 8735:705 JLINK_GetNumBPUnits(Type = 0xF0)  returns 0x2000 (0000ms, 5820ms total)
T59E8 8735:705 JLINK_GetNumWPUnits()  returns 0x02 (0000ms, 5820ms total)
T59E8 8735:717 JLINK_GetSpeed()  returns 0xFA0 (0000ms, 5820ms total)
T59E8 8735:723 JLINK_ReadMemU32(0xE000E004, 0x0001 Items, ...) -- CPU_ReadMem(4 bytes @ 0xE000E004) - Data: 00 00 00 00  returns 1 (0003ms, 5823ms total)
T59E8 8735:726 JLINK_Halt()  returns 0x00 (0000ms, 5823ms total)
T59E8 8735:726 JLINK_IsHalted()  returns TRUE (0000ms, 5823ms total)
T59E8 8735:729 JLINK_WriteMem(0x20000000, 0x01E0 Bytes, ...) - Data: 00 BE 0A E0 0D 78 2D 06 68 40 08 24 40 00 00 D3 ... -- CPU_WriteMem(480 bytes @ 0x20000000)  returns 0x1E0 (0005ms, 5828ms total)
T59E8 8735:734 JLINK_WriteReg(R0, 0x00000000)  returns 0x00 (0000ms, 5828ms total)
T59E8 8735:734 JLINK_WriteReg(R1, 0x00B71B00)  returns 0x00 (0000ms, 5828ms total)
T59E8 8735:734 JLINK_WriteReg(R2, 0x00000001)  returns 0x00 (0000ms, 5828ms total)
T59E8 8735:734 JLINK_WriteReg(R3, 0x00000000)  returns 0x00 (0000ms, 5828ms total)
T59E8 8735:734 JLINK_WriteReg(R4, 0x00000000)  returns 0x00 (0000ms, 5828ms total)
T59E8 8735:734 JLINK_WriteReg(R5, 0x00000000)  returns 0x00 (0000ms, 5828ms total)
T59E8 8735:734 JLINK_WriteReg(R6, 0x00000000)  returns 0x00 (0000ms, 5828ms total)
T59E8 8735:734 JLINK_WriteReg(R7, 0x00000000)  returns 0x00 (0000ms, 5828ms total)
T59E8 8735:734 JLINK_WriteReg(R8, 0x00000000)  returns 0x00 (0000ms, 5828ms total)
T59E8 8735:734 JLINK_WriteReg(R9, 0x200001DC)  returns 0x00 (0000ms, 5828ms total)
T59E8 8735:734 JLINK_WriteReg(R10, 0x00000000)  returns 0x00 (0000ms, 5828ms total)
T59E8 8735:734 JLINK_WriteReg(R11, 0x00000000)  returns 0x00 (0000ms, 5828ms total)
T59E8 8735:734 JLINK_WriteReg(R12, 0x00000000)  returns 0x00 (0000ms, 5828ms total)
T59E8 8735:734 JLINK_WriteReg(R13 (SP), 0x20001000)  returns 0x00 (0000ms, 5828ms total)
T59E8 8735:734 JLINK_WriteReg(R14, 0x20000001)  returns 0x00 (0000ms, 5828ms total)
T59E8 8735:734 JLINK_WriteReg(R15 (PC), 0x20000040)  returns 0x00 (0000ms, 5828ms total)
T59E8 8735:734 JLINK_WriteReg(XPSR, 0x01000000)  returns 0x00 (0000ms, 5828ms total)
T59E8 8735:734 JLINK_WriteReg(MSP, 0x20001000)  returns 0x00 (0000ms, 5828ms total)
T59E8 8735:734 JLINK_WriteReg(PSP, 0x20001000)  returns 0x00 (0000ms, 5828ms total)
T59E8 8735:734 JLINK_WriteReg(CFBP, 0x00000000)  returns 0x00 (0000ms, 5828ms total)
T59E8 8735:734 JLINK_SetBPEx(Addr = 0x20000000, Type = 0xFFFFFFF2) -- CPU_ReadMem(4 bytes @ 0x20000000) -- CPU_WriteMem(4 bytes @ 0x20000000) -- CPU_ReadMem(4 bytes @ 0x20000000) -- CPU_WriteMem(4 bytes @ 0x20000000) -- CPU_ReadMem(2 bytes @ 0x20000000)  returns 0x00000001 (0011ms, 5839ms total)
T59E8 8735:745 JLINK_Go() -- CPU_WriteMem(2 bytes @ 0x20000000) -- CPU_ReadMem(4 bytes @ 0xE0001000) -- CPU_WriteMem(4 bytes @ 0xE0001000) -- CPU_WriteMem(4 bytes @ 0xE0002008) -- CPU_WriteMem(4 bytes @ 0xE000200C) -- CPU_WriteMem(4 bytes @ 0xE0002010) -- CPU_WriteMem(4 bytes @ 0xE0002014) -- CPU_WriteMem(4 bytes @ 0xE0001004) (0016ms, 5855ms total)
T59E8 8735:761 JLINK_IsHalted() -- CPU_ReadMem(2 bytes @ 0x20000000)  returns TRUE (0007ms, 5862ms total)
T59E8 8735:768 JLINK_ReadReg(R15 (PC))  returns 0x20000000 (0000ms, 5855ms total)
T59E8 8735:768 JLINK_ClrBPEx(BPHandle = 0x00000001)  returns 0x00 (0000ms, 5855ms total)
T59E8 8735:768 JLINK_ReadReg(R0)  returns 0x00000000 (0000ms, 5855ms total)
T59E8 8735:769 JLINK_WriteReg(R0, 0x00000000)  returns 0x00 (0000ms, 5855ms total)
T59E8 8735:769 JLINK_WriteReg(R1, 0x00B71B00)  returns 0x00 (0000ms, 5855ms total)
T59E8 8735:769 JLINK_WriteReg(R2, 0x00000001)  returns 0x00 (0000ms, 5855ms total)
T59E8 8735:769 JLINK_WriteReg(R3, 0x00000000)  returns 0x00 (0000ms, 5855ms total)
T59E8 8735:769 JLINK_WriteReg(R4, 0x00000000)  returns 0x00 (0000ms, 5855ms total)
T59E8 8735:769 JLINK_WriteReg(R5, 0x00000000)  returns 0x00 (0000ms, 5855ms total)
T59E8 8735:769 JLINK_WriteReg(R6, 0x00000000)  returns 0x00 (0000ms, 5855ms total)
T59E8 8735:769 JLINK_WriteReg(R7, 0x00000000)  returns 0x00 (0000ms, 5855ms total)
T59E8 8735:769 JLINK_WriteReg(R8, 0x00000000)  returns 0x00 (0000ms, 5855ms total)
T59E8 8735:769 JLINK_WriteReg(R9, 0x200001DC)  returns 0x00 (0000ms, 5855ms total)
T59E8 8735:769 JLINK_WriteReg(R10, 0x00000000)  returns 0x00 (0000ms, 5855ms total)
T59E8 8735:769 JLINK_WriteReg(R11, 0x00000000)  returns 0x00 (0000ms, 5855ms total)
T59E8 8735:769 JLINK_WriteReg(R12, 0x00000000)  returns 0x00 (0000ms, 5855ms total)
T59E8 8735:769 JLINK_WriteReg(R13 (SP), 0x20001000)  returns 0x00 (0000ms, 5855ms total)
T59E8 8735:769 JLINK_WriteReg(R14, 0x20000001)  returns 0x00 (0000ms, 5855ms total)
T59E8 8735:769 JLINK_WriteReg(R15 (PC), 0x20000102)  returns 0x00 (0000ms, 5855ms total)
T59E8 8735:769 JLINK_WriteReg(XPSR, 0x01000000)  returns 0x00 (0000ms, 5855ms total)
T59E8 8735:769 JLINK_WriteReg(MSP, 0x20001000)  returns 0x00 (0000ms, 5855ms total)
T59E8 8735:769 JLINK_WriteReg(PSP, 0x20001000)  returns 0x00 (0000ms, 5855ms total)
T59E8 8735:769 JLINK_WriteReg(CFBP, 0x00000000)  returns 0x00 (0000ms, 5855ms total)
T59E8 8735:769 JLINK_SetBPEx(Addr = 0x20000000, Type = 0xFFFFFFF2)  returns 0x00000002 (0000ms, 5855ms total)
T59E8 8735:769 JLINK_Go() -- CPU_ReadMem(4 bytes @ 0xE0001000) -- CPU_WriteMem(4 bytes @ 0xE0001000) (0010ms, 5865ms total)
T59E8 8735:779 JLINK_IsHalted()  returns FALSE (0002ms, 5867ms total)
T59E8 8735:811 JLINK_IsHalted()  returns FALSE (0002ms, 5867ms total)
T59E8 8735:814 JLINK_IsHalted()  returns FALSE (0002ms, 5867ms total)
T59E8 8735:818 JLINK_IsHalted() -- CPU_ReadMem(2 bytes @ 0x20000000)  returns TRUE (0008ms, 5873ms total)
T59E8 8735:826 JLINK_ReadReg(R15 (PC))  returns 0x20000000 (0000ms, 5865ms total)
T59E8 8735:826 JLINK_ClrBPEx(BPHandle = 0x00000002)  returns 0x00 (0000ms, 5865ms total)
T59E8 8735:826 JLINK_ReadReg(R0)  returns 0x00000000 (0000ms, 5865ms total)
T59E8 8735:877 JLINK_WriteReg(R0, 0x00000001)  returns 0x00 (0000ms, 5865ms total)
T59E8 8735:877 JLINK_WriteReg(R1, 0x00B71B00)  returns 0x00 (0000ms, 5865ms total)
T59E8 8735:877 JLINK_WriteReg(R2, 0x00000001)  returns 0x00 (0000ms, 5865ms total)
T59E8 8735:877 JLINK_WriteReg(R3, 0x00000000)  returns 0x00 (0000ms, 5865ms total)
T59E8 8735:877 JLINK_WriteReg(R4, 0x00000000)  returns 0x00 (0000ms, 5865ms total)
T59E8 8735:877 JLINK_WriteReg(R5, 0x00000000)  returns 0x00 (0000ms, 5865ms total)
T59E8 8735:877 JLINK_WriteReg(R6, 0x00000000)  returns 0x00 (0000ms, 5865ms total)
T59E8 8735:877 JLINK_WriteReg(R7, 0x00000000)  returns 0x00 (0000ms, 5865ms total)
T59E8 8735:877 JLINK_WriteReg(R8, 0x00000000)  returns 0x00 (0000ms, 5865ms total)
T59E8 8735:877 JLINK_WriteReg(R9, 0x200001DC)  returns 0x00 (0000ms, 5865ms total)
T59E8 8735:877 JLINK_WriteReg(R10, 0x00000000)  returns 0x00 (0000ms, 5865ms total)
T59E8 8735:877 JLINK_WriteReg(R11, 0x00000000)  returns 0x00 (0000ms, 5865ms total)
T59E8 8735:877 JLINK_WriteReg(R12, 0x00000000)  returns 0x00 (0000ms, 5865ms total)
T59E8 8735:877 JLINK_WriteReg(R13 (SP), 0x20001000)  returns 0x00 (0000ms, 5865ms total)
T59E8 8735:877 JLINK_WriteReg(R14, 0x20000001)  returns 0x00 (0000ms, 5865ms total)
T59E8 8735:877 JLINK_WriteReg(R15 (PC), 0x200000FE)  returns 0x00 (0000ms, 5865ms total)
T59E8 8735:877 JLINK_WriteReg(XPSR, 0x01000000)  returns 0x00 (0000ms, 5865ms total)
T59E8 8735:877 JLINK_WriteReg(MSP, 0x20001000)  returns 0x00 (0000ms, 5865ms total)
T59E8 8735:877 JLINK_WriteReg(PSP, 0x20001000)  returns 0x00 (0000ms, 5865ms total)
T59E8 8735:877 JLINK_WriteReg(CFBP, 0x00000000)  returns 0x00 (0000ms, 5865ms total)
T59E8 8735:877 JLINK_SetBPEx(Addr = 0x20000000, Type = 0xFFFFFFF2)  returns 0x00000003 (0000ms, 5865ms total)
T59E8 8735:877 JLINK_Go() -- CPU_ReadMem(4 bytes @ 0xE0001000) -- CPU_WriteMem(4 bytes @ 0xE0001000) (0010ms, 5875ms total)
T59E8 8735:887 JLINK_IsHalted() -- CPU_ReadMem(2 bytes @ 0x20000000)  returns TRUE (0007ms, 5882ms total)
T59E8 8735:894 JLINK_ReadReg(R15 (PC))  returns 0x20000000 (0000ms, 5875ms total)
T59E8 8735:894 JLINK_ClrBPEx(BPHandle = 0x00000003)  returns 0x00 (0000ms, 5875ms total)
T59E8 8735:894 JLINK_ReadReg(R0)  returns 0x00000000 (0000ms, 5875ms total)
T59E8 8735:899 JLINK_WriteMem(0x20000000, 0x01E0 Bytes, ...) - Data: 00 BE 0A E0 0D 78 2D 06 68 40 08 24 40 00 00 D3 ... -- CPU_WriteMem(480 bytes @ 0x20000000)  returns 0x1E0 (0004ms, 5879ms total)
T59E8 8735:903 JLINK_WriteReg(R0, 0x00000000)  returns 0x00 (0000ms, 5879ms total)
T59E8 8735:903 JLINK_WriteReg(R1, 0x00B71B00)  returns 0x00 (0000ms, 5879ms total)
T59E8 8735:903 JLINK_WriteReg(R2, 0x00000002)  returns 0x00 (0000ms, 5879ms total)
T59E8 8735:903 JLINK_WriteReg(R3, 0x00000000)  returns 0x00 (0000ms, 5879ms total)
T59E8 8735:903 JLINK_WriteReg(R4, 0x00000000)  returns 0x00 (0001ms, 5880ms total)
T59E8 8735:904 JLINK_WriteReg(R5, 0x00000000)  returns 0x00 (0000ms, 5880ms total)
T59E8 8735:904 JLINK_WriteReg(R6, 0x00000000)  returns 0x00 (0000ms, 5880ms total)
T59E8 8735:904 JLINK_WriteReg(R7, 0x00000000)  returns 0x00 (0000ms, 5880ms total)
T59E8 8735:904 JLINK_WriteReg(R8, 0x00000000)  returns 0x00 (0000ms, 5880ms total)
T59E8 8735:904 JLINK_WriteReg(R9, 0x200001DC)  returns 0x00 (0000ms, 5880ms total)
T59E8 8735:904 JLINK_WriteReg(R10, 0x00000000)  returns 0x00 (0000ms, 5880ms total)
T59E8 8735:904 JLINK_WriteReg(R11, 0x00000000)  returns 0x00 (0000ms, 5880ms total)
T59E8 8735:904 JLINK_WriteReg(R12, 0x00000000)  returns 0x00 (0000ms, 5880ms total)
T59E8 8735:904 JLINK_WriteReg(R13 (SP), 0x20001000)  returns 0x00 (0000ms, 5880ms total)
T59E8 8735:904 JLINK_WriteReg(R14, 0x20000001)  returns 0x00 (0000ms, 5880ms total)
T59E8 8735:904 JLINK_WriteReg(R15 (PC), 0x20000040)  returns 0x00 (0000ms, 5880ms total)
T59E8 8735:904 JLINK_WriteReg(XPSR, 0x01000000)  returns 0x00 (0000ms, 5880ms total)
T59E8 8735:904 JLINK_WriteReg(MSP, 0x20001000)  returns 0x00 (0000ms, 5880ms total)
T59E8 8735:904 JLINK_WriteReg(PSP, 0x20001000)  returns 0x00 (0000ms, 5880ms total)
T59E8 8735:904 JLINK_WriteReg(CFBP, 0x00000000)  returns 0x00 (0000ms, 5880ms total)
T59E8 8735:904 JLINK_SetBPEx(Addr = 0x20000000, Type = 0xFFFFFFF2) -- CPU_ReadMem(4 bytes @ 0x20000000) -- CPU_WriteMem(4 bytes @ 0x20000000) -- CPU_ReadMem(4 bytes @ 0x20000000) -- CPU_WriteMem(4 bytes @ 0x20000000) -- CPU_ReadMem(2 bytes @ 0x20000000)  returns 0x00000004 (0012ms, 5892ms total)
T59E8 8735:916 JLINK_Go() -- CPU_WriteMem(2 bytes @ 0x20000000) -- CPU_ReadMem(4 bytes @ 0xE0001000) -- CPU_WriteMem(4 bytes @ 0xE0001000) (0013ms, 5905ms total)
T59E8 8735:929 JLINK_IsHalted() -- CPU_ReadMem(2 bytes @ 0x20000000)  returns TRUE (0007ms, 5912ms total)
T59E8 8735:936 JLINK_ReadReg(R15 (PC))  returns 0x20000000 (0000ms, 5905ms total)
T59E8 8735:936 JLINK_ClrBPEx(BPHandle = 0x00000004)  returns 0x00 (0000ms, 5905ms total)
T59E8 8735:936 JLINK_ReadReg(R0)  returns 0x00000000 (0000ms, 5905ms total)
T59E8 8735:936 JLINK_WriteMem(0x200001E0, 0x0200 Bytes, ...) - Data: 70 0E 00 20 D5 00 00 00 EF 00 00 00 21 1E 00 00 ... -- CPU_WriteMem(512 bytes @ 0x200001E0)  returns 0x200 (0004ms, 5909ms total)
T59E8 8735:940 JLINK_WriteReg(R0, 0x00000000)  returns 0x00 (0000ms, 5909ms total)
T59E8 8735:940 JLINK_WriteReg(R1, 0x00000200)  returns 0x00 (0000ms, 5909ms total)
T59E8 8735:940 JLINK_WriteReg(R2, 0x200001E0)  returns 0x00 (0000ms, 5909ms total)
T59E8 8735:940 JLINK_WriteReg(R3, 0x00000000)  returns 0x00 (0000ms, 5909ms total)
T59E8 8735:940 JLINK_WriteReg(R4, 0x00000000)  returns 0x00 (0000ms, 5909ms total)
T59E8 8735:940 JLINK_WriteReg(R5, 0x00000000)  returns 0x00 (0000ms, 5909ms total)
T59E8 8735:940 JLINK_WriteReg(R6, 0x00000000)  returns 0x00 (0000ms, 5909ms total)
T59E8 8735:940 JLINK_WriteReg(R7, 0x00000000)  returns 0x00 (0000ms, 5909ms total)
T59E8 8735:940 JLINK_WriteReg(R8, 0x00000000)  returns 0x00 (0000ms, 5909ms total)
T59E8 8735:940 JLINK_WriteReg(R9, 0x200001DC)  returns 0x00 (0000ms, 5909ms total)
T59E8 8735:940 JLINK_WriteReg(R10, 0x00000000)  returns 0x00 (0000ms, 5909ms total)
T59E8 8735:940 JLINK_WriteReg(R11, 0x00000000)  returns 0x00 (0000ms, 5909ms total)
T59E8 8735:940 JLINK_WriteReg(R12, 0x00000000)  returns 0x00 (0000ms, 5909ms total)
T59E8 8735:940 JLINK_WriteReg(R13 (SP), 0x20001000)  returns 0x00 (0000ms, 5909ms total)
T59E8 8735:940 JLINK_WriteReg(R14, 0x20000001)  returns 0x00 (0000ms, 5909ms total)
T59E8 8735:940 JLINK_WriteReg(R15 (PC), 0x2000016A)  returns 0x00 (0000ms, 5909ms total)
T59E8 8735:940 JLINK_WriteReg(XPSR, 0x01000000)  returns 0x00 (0000ms, 5909ms total)
T59E8 8735:940 JLINK_WriteReg(MSP, 0x20001000)  returns 0x00 (0000ms, 5909ms total)
T59E8 8735:940 JLINK_WriteReg(PSP, 0x20001000)  returns 0x00 (0000ms, 5909ms total)
T59E8 8735:940 JLINK_WriteReg(CFBP, 0x00000000)  returns 0x00 (0001ms, 5910ms total)
T59E8 8735:941 JLINK_SetBPEx(Addr = 0x20000000, Type = 0xFFFFFFF2)  returns 0x00000005 (0000ms, 5910ms total)
T59E8 8735:941 JLINK_Go() -- CPU_ReadMem(4 bytes @ 0xE0001000) -- CPU_WriteMem(4 bytes @ 0xE0001000) (0009ms, 5919ms total)
T59E8 8735:950 JLINK_IsHalted()  returns FALSE (0002ms, 5921ms total)
T59E8 8735:959 JLINK_IsHalted()  returns FALSE (0002ms, 5921ms total)
T59E8 8735:962 JLINK_IsHalted()  returns FALSE (0002ms, 5921ms total)
T59E8 8735:965 JLINK_IsHalted()  returns FALSE (0002ms, 5921ms total)
T59E8 8735:970 JLINK_IsHalted() -- CPU_ReadMem(2 bytes @ 0x20000000)  returns TRUE (0008ms, 5927ms total)
T59E8 8735:978 JLINK_ReadReg(R15 (PC))  returns 0x20000000 (0000ms, 5919ms total)
T59E8 8735:978 JLINK_ClrBPEx(BPHandle = 0x00000005)  returns 0x00 (0000ms, 5919ms total)
T59E8 8735:978 JLINK_ReadReg(R0)  returns 0x00000000 (0000ms, 5919ms total)
T59E8 8735:978 JLINK_WriteMem(0x200001E0, 0x0200 Bytes, ...) - Data: E4 0F E4 07 03 94 4C 00 00 26 64 08 59 00 94 46 ... -- CPU_WriteMem(512 bytes @ 0x200001E0)  returns 0x200 (0004ms, 5923ms total)
T59E8 8735:982 JLINK_WriteReg(R0, 0x00000200)  returns 0x00 (0000ms, 5923ms total)
T59E8 8735:982 JLINK_WriteReg(R1, 0x00000200)  returns 0x00 (0000ms, 5923ms total)
T59E8 8735:982 JLINK_WriteReg(R2, 0x200001E0)  returns 0x00 (0000ms, 5923ms total)
T59E8 8735:982 JLINK_WriteReg(R3, 0x00000000)  returns 0x00 (0000ms, 5923ms total)
T59E8 8735:982 JLINK_WriteReg(R4, 0x00000000)  returns 0x00 (0000ms, 5923ms total)
T59E8 8735:982 JLINK_WriteReg(R5, 0x00000000)  returns 0x00 (0000ms, 5923ms total)
T59E8 8735:982 JLINK_WriteReg(R6, 0x00000000)  returns 0x00 (0001ms, 5924ms total)
T59E8 8735:983 JLINK_WriteReg(R7, 0x00000000)  returns 0x00 (0000ms, 5924ms total)
T59E8 8735:983 JLINK_WriteReg(R8, 0x00000000)  returns 0x00 (0000ms, 5924ms total)
T59E8 8735:983 JLINK_WriteReg(R9, 0x200001DC)  returns 0x00 (0000ms, 5924ms total)
T59E8 8735:983 JLINK_WriteReg(R10, 0x00000000)  returns 0x00 (0000ms, 5924ms total)
T59E8 8735:983 JLINK_WriteReg(R11, 0x00000000)  returns 0x00 (0000ms, 5924ms total)
T59E8 8735:983 JLINK_WriteReg(R12, 0x00000000)  returns 0x00 (0000ms, 5924ms total)
T59E8 8735:983 JLINK_WriteReg(R13 (SP), 0x20001000)  returns 0x00 (0000ms, 5924ms total)
T59E8 8735:983 JLINK_WriteReg(R14, 0x20000001)  returns 0x00 (0000ms, 5924ms total)
T59E8 8735:983 JLINK_WriteReg(R15 (PC), 0x2000016A)  returns 0x00 (0000ms, 5924ms total)
T59E8 8735:983 JLINK_WriteReg(XPSR, 0x01000000)  returns 0x00 (0000ms, 5924ms total)
T59E8 8735:983 JLINK_WriteReg(MSP, 0x20001000)  returns 0x00 (0000ms, 5924ms total)
T59E8 8735:983 JLINK_WriteReg(PSP, 0x20001000)  returns 0x00 (0000ms, 5924ms total)
T59E8 8735:983 JLINK_WriteReg(CFBP, 0x00000000)  returns 0x00 (0000ms, 5924ms total)
T59E8 8735:983 JLINK_SetBPEx(Addr = 0x20000000, Type = 0xFFFFFFF2)  returns 0x00000006 (0000ms, 5924ms total)
T59E8 8735:983 JLINK_Go() -- CPU_ReadMem(4 bytes @ 0xE0001000) -- CPU_WriteMem(4 bytes @ 0xE0001000) (0009ms, 5933ms total)
T59E8 8735:993 JLINK_IsHalted()  returns FALSE (0002ms, 5935ms total)
T59E8 8735:996 JLINK_IsHalted()  returns FALSE (0002ms, 5935ms total)
T59E8 8735:999 JLINK_IsHalted()  returns FALSE (0002ms, 5935ms total)
T59E8 8736:002 JLINK_IsHalted()  returns FALSE (0002ms, 5935ms total)
T59E8 8736:005 JLINK_IsHalted()  returns FALSE (0002ms, 5935ms total)
T59E8 8736:008 JLINK_IsHalted()  returns FALSE (0002ms, 5935ms total)
T59E8 8736:011 JLINK_IsHalted() -- CPU_ReadMem(2 bytes @ 0x20000000)  returns TRUE (0008ms, 5941ms total)
T59E8 8736:019 JLINK_ReadReg(R15 (PC))  returns 0x20000000 (0000ms, 5933ms total)
T59E8 8736:019 JLINK_ClrBPEx(BPHandle = 0x00000006)  returns 0x00 (0000ms, 5933ms total)
T59E8 8736:019 JLINK_ReadReg(R0)  returns 0x00000000 (0000ms, 5933ms total)
T59E8 8736:020 JLINK_WriteMem(0x200001E0, 0x0200 Bytes, ...) - Data: 79 05 E4 0A 00 22 0C 43 FD 0A 0A 30 02 D5 00 20 ... -- CPU_WriteMem(512 bytes @ 0x200001E0)  returns 0x200 (0005ms, 5938ms total)
T59E8 8736:025 JLINK_WriteReg(R0, 0x00000400)  returns 0x00 (0000ms, 5938ms total)
T59E8 8736:025 JLINK_WriteReg(R1, 0x00000200)  returns 0x00 (0000ms, 5938ms total)
T59E8 8736:025 JLINK_WriteReg(R2, 0x200001E0)  returns 0x00 (0000ms, 5938ms total)
T59E8 8736:025 JLINK_WriteReg(R3, 0x00000000)  returns 0x00 (0000ms, 5938ms total)
T59E8 8736:025 JLINK_WriteReg(R4, 0x00000000)  returns 0x00 (0000ms, 5938ms total)
T59E8 8736:025 JLINK_WriteReg(R5, 0x00000000)  returns 0x00 (0000ms, 5938ms total)
T59E8 8736:025 JLINK_WriteReg(R6, 0x00000000)  returns 0x00 (0000ms, 5938ms total)
T59E8 8736:025 JLINK_WriteReg(R7, 0x00000000)  returns 0x00 (0000ms, 5938ms total)
T59E8 8736:025 JLINK_WriteReg(R8, 0x00000000)  returns 0x00 (0000ms, 5938ms total)
T59E8 8736:025 JLINK_WriteReg(R9, 0x200001DC)  returns 0x00 (0000ms, 5938ms total)
T59E8 8736:025 JLINK_WriteReg(R10, 0x00000000)  returns 0x00 (0000ms, 5938ms total)
T59E8 8736:025 JLINK_WriteReg(R11, 0x00000000)  returns 0x00 (0000ms, 5938ms total)
T59E8 8736:025 JLINK_WriteReg(R12, 0x00000000)  returns 0x00 (0000ms, 5938ms total)
T59E8 8736:025 JLINK_WriteReg(R13 (SP), 0x20001000)  returns 0x00 (0000ms, 5938ms total)
T59E8 8736:025 JLINK_WriteReg(R14, 0x20000001)  returns 0x00 (0000ms, 5938ms total)
T59E8 8736:025 JLINK_WriteReg(R15 (PC), 0x2000016A)  returns 0x00 (0000ms, 5938ms total)
T59E8 8736:025 JLINK_WriteReg(XPSR, 0x01000000)  returns 0x00 (0000ms, 5938ms total)
T59E8 8736:025 JLINK_WriteReg(MSP, 0x20001000)  returns 0x00 (0000ms, 5938ms total)
T59E8 8736:025 JLINK_WriteReg(PSP, 0x20001000)  returns 0x00 (0000ms, 5938ms total)
T59E8 8736:025 JLINK_WriteReg(CFBP, 0x00000000)  returns 0x00 (0000ms, 5938ms total)
T59E8 8736:025 JLINK_SetBPEx(Addr = 0x20000000, Type = 0xFFFFFFF2)  returns 0x00000007 (0000ms, 5938ms total)
T59E8 8736:025 JLINK_Go() -- CPU_ReadMem(4 bytes @ 0xE0001000) -- CPU_WriteMem(4 bytes @ 0xE0001000) (0010ms, 5948ms total)
T59E8 8736:035 JLINK_IsHalted()  returns FALSE (0003ms, 5951ms total)
T59E8 8736:042 JLINK_IsHalted()  returns FALSE (0002ms, 5950ms total)
T59E8 8736:045 JLINK_IsHalted()  returns FALSE (0002ms, 5950ms total)
T59E8 8736:048 JLINK_IsHalted()  returns FALSE (0002ms, 5950ms total)
T59E8 8736:051 JLINK_IsHalted()  returns FALSE (0002ms, 5950ms total)
T59E8 8736:054 JLINK_IsHalted() -- CPU_ReadMem(2 bytes @ 0x20000000)  returns TRUE (0007ms, 5955ms total)
T59E8 8736:061 JLINK_ReadReg(R15 (PC))  returns 0x20000000 (0000ms, 5948ms total)
T59E8 8736:061 JLINK_ClrBPEx(BPHandle = 0x00000007)  returns 0x00 (0000ms, 5948ms total)
T59E8 8736:061 JLINK_ReadReg(R0)  returns 0x00000000 (0000ms, 5948ms total)
T59E8 8736:062 JLINK_WriteMem(0x200001E0, 0x0200 Bytes, ...) - Data: 03 46 00 E0 03 23 9C 46 C1 1A 0A AE 0A E0 5F 00 ... -- CPU_WriteMem(512 bytes @ 0x200001E0)  returns 0x200 (0004ms, 5952ms total)
T59E8 8736:066 JLINK_WriteReg(R0, 0x00000600)  returns 0x00 (0000ms, 5952ms total)
T59E8 8736:066 JLINK_WriteReg(R1, 0x00000200)  returns 0x00 (0000ms, 5952ms total)
T59E8 8736:066 JLINK_WriteReg(R2, 0x200001E0)  returns 0x00 (0000ms, 5952ms total)
T59E8 8736:066 JLINK_WriteReg(R3, 0x00000000)  returns 0x00 (0000ms, 5952ms total)
T59E8 8736:066 JLINK_WriteReg(R4, 0x00000000)  returns 0x00 (0000ms, 5952ms total)
T59E8 8736:066 JLINK_WriteReg(R5, 0x00000000)  returns 0x00 (0000ms, 5952ms total)
T59E8 8736:066 JLINK_WriteReg(R6, 0x00000000)  returns 0x00 (0000ms, 5952ms total)
T59E8 8736:066 JLINK_WriteReg(R7, 0x00000000)  returns 0x00 (0000ms, 5952ms total)
T59E8 8736:066 JLINK_WriteReg(R8, 0x00000000)  returns 0x00 (0000ms, 5952ms total)
T59E8 8736:066 JLINK_WriteReg(R9, 0x200001DC)  returns 0x00 (0000ms, 5952ms total)
T59E8 8736:066 JLINK_WriteReg(R10, 0x00000000)  returns 0x00 (0000ms, 5952ms total)
T59E8 8736:066 JLINK_WriteReg(R11, 0x00000000)  returns 0x00 (0000ms, 5952ms total)
T59E8 8736:066 JLINK_WriteReg(R12, 0x00000000)  returns 0x00 (0000ms, 5952ms total)
T59E8 8736:066 JLINK_WriteReg(R13 (SP), 0x20001000)  returns 0x00 (0000ms, 5952ms total)
T59E8 8736:066 JLINK_WriteReg(R14, 0x20000001)  returns 0x00 (0000ms, 5952ms total)
T59E8 8736:066 JLINK_WriteReg(R15 (PC), 0x2000016A)  returns 0x00 (0000ms, 5952ms total)
T59E8 8736:066 JLINK_WriteReg(XPSR, 0x01000000)  returns 0x00 (0000ms, 5952ms total)
T59E8 8736:066 JLINK_WriteReg(MSP, 0x20001000)  returns 0x00 (0000ms, 5952ms total)
T59E8 8736:066 JLINK_WriteReg(PSP, 0x20001000)  returns 0x00 (0000ms, 5952ms total)
T59E8 8736:066 JLINK_WriteReg(CFBP, 0x00000000)  returns 0x00 (0000ms, 5952ms total)
T59E8 8736:066 JLINK_SetBPEx(Addr = 0x20000000, Type = 0xFFFFFFF2)  returns 0x00000008 (0000ms, 5952ms total)
T59E8 8736:066 JLINK_Go() -- CPU_ReadMem(4 bytes @ 0xE0001000) -- CPU_WriteMem(4 bytes @ 0xE0001000) (0010ms, 5962ms total)
T59E8 8736:076 JLINK_IsHalted()  returns FALSE (0003ms, 5965ms total)
T59E8 8736:081 JLINK_IsHalted()  returns FALSE (0002ms, 5964ms total)
T59E8 8736:086 JLINK_IsHalted()  returns FALSE (0002ms, 5964ms total)
T59E8 8736:089 JLINK_IsHalted()  returns FALSE (0002ms, 5964ms total)
T59E8 8736:092 JLINK_IsHalted() -- CPU_ReadMem(2 bytes @ 0x20000000)  returns TRUE (0007ms, 5969ms total)
T59E8 8736:100 JLINK_ReadReg(R15 (PC))  returns 0x20000000 (0000ms, 5962ms total)
T59E8 8736:100 JLINK_ClrBPEx(BPHandle = 0x00000008)  returns 0x00 (0000ms, 5962ms total)
T59E8 8736:100 JLINK_ReadReg(R0)  returns 0x00000000 (0000ms, 5962ms total)
T59E8 8736:100 JLINK_WriteMem(0x200001E0, 0x0200 Bytes, ...) - Data: 88 40 C4 43 FF 20 05 30 C4 50 00 20 F6 E7 00 00 ... -- CPU_WriteMem(512 bytes @ 0x200001E0)  returns 0x200 (0004ms, 5966ms total)
T59E8 8736:104 JLINK_WriteReg(R0, 0x00000800)  returns 0x00 (0000ms, 5966ms total)
T59E8 8736:104 JLINK_WriteReg(R1, 0x00000200)  returns 0x00 (0000ms, 5966ms total)
T59E8 8736:104 JLINK_WriteReg(R2, 0x200001E0)  returns 0x00 (0000ms, 5966ms total)
T59E8 8736:104 JLINK_WriteReg(R3, 0x00000000)  returns 0x00 (0000ms, 5966ms total)
T59E8 8736:104 JLINK_WriteReg(R4, 0x00000000)  returns 0x00 (0000ms, 5966ms total)
T59E8 8736:104 JLINK_WriteReg(R5, 0x00000000)  returns 0x00 (0000ms, 5966ms total)
T59E8 8736:104 JLINK_WriteReg(R6, 0x00000000)  returns 0x00 (0000ms, 5966ms total)
T59E8 8736:104 JLINK_WriteReg(R7, 0x00000000)  returns 0x00 (0000ms, 5966ms total)
T59E8 8736:104 JLINK_WriteReg(R8, 0x00000000)  returns 0x00 (0000ms, 5966ms total)
T59E8 8736:104 JLINK_WriteReg(R9, 0x200001DC)  returns 0x00 (0000ms, 5966ms total)
T59E8 8736:104 JLINK_WriteReg(R10, 0x00000000)  returns 0x00 (0000ms, 5966ms total)
T59E8 8736:104 JLINK_WriteReg(R11, 0x00000000)  returns 0x00 (0000ms, 5966ms total)
T59E8 8736:104 JLINK_WriteReg(R12, 0x00000000)  returns 0x00 (0000ms, 5966ms total)
T59E8 8736:104 JLINK_WriteReg(R13 (SP), 0x20001000)  returns 0x00 (0000ms, 5966ms total)
T59E8 8736:104 JLINK_WriteReg(R14, 0x20000001)  returns 0x00 (0000ms, 5966ms total)
T59E8 8736:104 JLINK_WriteReg(R15 (PC), 0x2000016A)  returns 0x00 (0000ms, 5966ms total)
T59E8 8736:104 JLINK_WriteReg(XPSR, 0x01000000)  returns 0x00 (0000ms, 5966ms total)
T59E8 8736:104 JLINK_WriteReg(MSP, 0x20001000)  returns 0x00 (0000ms, 5966ms total)
T59E8 8736:104 JLINK_WriteReg(PSP, 0x20001000)  returns 0x00 (0000ms, 5966ms total)
T59E8 8736:104 JLINK_WriteReg(CFBP, 0x00000000)  returns 0x00 (0000ms, 5966ms total)
T59E8 8736:104 JLINK_SetBPEx(Addr = 0x20000000, Type = 0xFFFFFFF2)  returns 0x00000009 (0000ms, 5966ms total)
T59E8 8736:104 JLINK_Go() -- CPU_ReadMem(4 bytes @ 0xE0001000) -- CPU_WriteMem(4 bytes @ 0xE0001000) (0010ms, 5976ms total)
T59E8 8736:114 JLINK_IsHalted()  returns FALSE (0002ms, 5978ms total)
T59E8 8736:117 JLINK_IsHalted()  returns FALSE (0002ms, 5978ms total)
T59E8 8736:127 JLINK_IsHalted()  returns FALSE (0002ms, 5978ms total)
T59E8 8736:130 JLINK_IsHalted()  returns FALSE (0002ms, 5978ms total)
T59E8 8736:133 JLINK_IsHalted() -- CPU_ReadMem(2 bytes @ 0x20000000)  returns TRUE (0007ms, 5983ms total)
T59E8 8736:140 JLINK_ReadReg(R15 (PC))  returns 0x20000000 (0000ms, 5976ms total)
T59E8 8736:140 JLINK_ClrBPEx(BPHandle = 0x00000009)  returns 0x00 (0000ms, 5976ms total)
T59E8 8736:140 JLINK_ReadReg(R0)  returns 0x00000000 (0000ms, 5976ms total)
T59E8 8736:142 JLINK_WriteMem(0x200001E0, 0x0200 Bytes, ...) - Data: 08 6A 80 47 04 49 FF 20 05 30 41 51 70 BD 00 00 ... -- CPU_WriteMem(512 bytes @ 0x200001E0)  returns 0x200 (0004ms, 5980ms total)
T59E8 8736:146 JLINK_WriteReg(R0, 0x00000A00)  returns 0x00 (0000ms, 5980ms total)
T59E8 8736:146 JLINK_WriteReg(R1, 0x00000200)  returns 0x00 (0000ms, 5980ms total)
T59E8 8736:146 JLINK_WriteReg(R2, 0x200001E0)  returns 0x00 (0000ms, 5980ms total)
T59E8 8736:146 JLINK_WriteReg(R3, 0x00000000)  returns 0x00 (0000ms, 5980ms total)
T59E8 8736:146 JLINK_WriteReg(R4, 0x00000000)  returns 0x00 (0000ms, 5980ms total)
T59E8 8736:146 JLINK_WriteReg(R5, 0x00000000)  returns 0x00 (0000ms, 5980ms total)
T59E8 8736:146 JLINK_WriteReg(R6, 0x00000000)  returns 0x00 (0000ms, 5980ms total)
T59E8 8736:146 JLINK_WriteReg(R7, 0x00000000)  returns 0x00 (0000ms, 5980ms total)
T59E8 8736:146 JLINK_WriteReg(R8, 0x00000000)  returns 0x00 (0000ms, 5980ms total)
T59E8 8736:146 JLINK_WriteReg(R9, 0x200001DC)  returns 0x00 (0000ms, 5980ms total)
T59E8 8736:146 JLINK_WriteReg(R10, 0x00000000)  returns 0x00 (0000ms, 5980ms total)
T59E8 8736:146 JLINK_WriteReg(R11, 0x00000000)  returns 0x00 (0000ms, 5980ms total)
T59E8 8736:146 JLINK_WriteReg(R12, 0x00000000)  returns 0x00 (0000ms, 5980ms total)
T59E8 8736:146 JLINK_WriteReg(R13 (SP), 0x20001000)  returns 0x00 (0000ms, 5980ms total)
T59E8 8736:146 JLINK_WriteReg(R14, 0x20000001)  returns 0x00 (0000ms, 5980ms total)
T59E8 8736:146 JLINK_WriteReg(R15 (PC), 0x2000016A)  returns 0x00 (0000ms, 5980ms total)
T59E8 8736:146 JLINK_WriteReg(XPSR, 0x01000000)  returns 0x00 (0000ms, 5980ms total)
T59E8 8736:146 JLINK_WriteReg(MSP, 0x20001000)  returns 0x00 (0000ms, 5980ms total)
T59E8 8736:146 JLINK_WriteReg(PSP, 0x20001000)  returns 0x00 (0000ms, 5980ms total)
T59E8 8736:146 JLINK_WriteReg(CFBP, 0x00000000)  returns 0x00 (0000ms, 5980ms total)
T59E8 8736:146 JLINK_SetBPEx(Addr = 0x20000000, Type = 0xFFFFFFF2)  returns 0x0000000A (0000ms, 5980ms total)
T59E8 8736:146 JLINK_Go() -- CPU_ReadMem(4 bytes @ 0xE0001000) -- CPU_WriteMem(4 bytes @ 0xE0001000) (0010ms, 5990ms total)
T59E8 8736:156 JLINK_IsHalted()  returns FALSE (0002ms, 5992ms total)
T59E8 8736:161 JLINK_IsHalted()  returns FALSE (0002ms, 5992ms total)
T59E8 8736:164 JLINK_IsHalted()  returns FALSE (0002ms, 5992ms total)
T59E8 8736:167 JLINK_IsHalted()  returns FALSE (0002ms, 5992ms total)
T59E8 8736:170 JLINK_IsHalted()  returns FALSE (0002ms, 5992ms total)
T59E8 8736:173 JLINK_IsHalted() -- CPU_ReadMem(2 bytes @ 0x20000000)  returns TRUE (0007ms, 5997ms total)
T59E8 8736:180 JLINK_ReadReg(R15 (PC))  returns 0x20000000 (0000ms, 5990ms total)
T59E8 8736:180 JLINK_ClrBPEx(BPHandle = 0x0000000A)  returns 0x00 (0000ms, 5990ms total)
T59E8 8736:180 JLINK_ReadReg(R0)  returns 0x00000000 (0000ms, 5990ms total)
T59E8 8736:180 JLINK_WriteMem(0x200001E0, 0x0200 Bytes, ...) - Data: 20 46 FF F7 7D FF 05 B0 F0 BD 00 00 35 0C 00 00 ... -- CPU_WriteMem(512 bytes @ 0x200001E0)  returns 0x200 (0004ms, 5994ms total)
T59E8 8736:187 JLINK_WriteReg(R0, 0x00000C00)  returns 0x00 (0000ms, 5994ms total)
T59E8 8736:187 JLINK_WriteReg(R1, 0x00000200)  returns 0x00 (0000ms, 5994ms total)
T59E8 8736:187 JLINK_WriteReg(R2, 0x200001E0)  returns 0x00 (0000ms, 5994ms total)
T59E8 8736:187 JLINK_WriteReg(R3, 0x00000000)  returns 0x00 (0000ms, 5994ms total)
T59E8 8736:187 JLINK_WriteReg(R4, 0x00000000)  returns 0x00 (0000ms, 5994ms total)
T59E8 8736:187 JLINK_WriteReg(R5, 0x00000000)  returns 0x00 (0000ms, 5994ms total)
T59E8 8736:187 JLINK_WriteReg(R6, 0x00000000)  returns 0x00 (0000ms, 5994ms total)
T59E8 8736:187 JLINK_WriteReg(R7, 0x00000000)  returns 0x00 (0000ms, 5994ms total)
T59E8 8736:187 JLINK_WriteReg(R8, 0x00000000)  returns 0x00 (0000ms, 5994ms total)
T59E8 8736:187 JLINK_WriteReg(R9, 0x200001DC)  returns 0x00 (0000ms, 5994ms total)
T59E8 8736:187 JLINK_WriteReg(R10, 0x00000000)  returns 0x00 (0000ms, 5994ms total)
T59E8 8736:187 JLINK_WriteReg(R11, 0x00000000)  returns 0x00 (0000ms, 5994ms total)
T59E8 8736:187 JLINK_WriteReg(R12, 0x00000000)  returns 0x00 (0000ms, 5994ms total)
T59E8 8736:187 JLINK_WriteReg(R13 (SP), 0x20001000)  returns 0x00 (0000ms, 5994ms total)
T59E8 8736:187 JLINK_WriteReg(R14, 0x20000001)  returns 0x00 (0000ms, 5994ms total)
T59E8 8736:187 JLINK_WriteReg(R15 (PC), 0x2000016A)  returns 0x00 (0000ms, 5994ms total)
T59E8 8736:187 JLINK_WriteReg(XPSR, 0x01000000)  returns 0x00 (0000ms, 5994ms total)
T59E8 8736:187 JLINK_WriteReg(MSP, 0x20001000)  returns 0x00 (0000ms, 5994ms total)
T59E8 8736:187 JLINK_WriteReg(PSP, 0x20001000)  returns 0x00 (0000ms, 5994ms total)
T59E8 8736:187 JLINK_WriteReg(CFBP, 0x00000000)  returns 0x00 (0000ms, 5994ms total)
T59E8 8736:187 JLINK_SetBPEx(Addr = 0x20000000, Type = 0xFFFFFFF2)  returns 0x0000000B (0000ms, 5994ms total)
T59E8 8736:187 JLINK_Go() -- CPU_ReadMem(4 bytes @ 0xE0001000) -- CPU_WriteMem(4 bytes @ 0xE0001000) (0011ms, 6005ms total)
T59E8 8736:198 JLINK_IsHalted()  returns FALSE (0002ms, 6007ms total)
T59E8 8736:203 JLINK_IsHalted()  returns FALSE (0002ms, 6007ms total)
T59E8 8736:206 JLINK_IsHalted()  returns FALSE (0002ms, 6007ms total)
T59E8 8736:209 JLINK_IsHalted()  returns FALSE (0002ms, 6007ms total)
T59E8 8736:212 JLINK_IsHalted()  returns FALSE (0002ms, 6007ms total)
T59E8 8736:215 JLINK_IsHalted() -- CPU_ReadMem(2 bytes @ 0x20000000)  returns TRUE (0007ms, 6012ms total)
T59E8 8736:222 JLINK_ReadReg(R15 (PC))  returns 0x20000000 (0000ms, 6005ms total)
T59E8 8736:222 JLINK_ClrBPEx(BPHandle = 0x0000000B)  returns 0x00 (0000ms, 6005ms total)
T59E8 8736:222 JLINK_ReadReg(R0)  returns 0x00000000 (0000ms, 6005ms total)
T59E8 8736:222 JLINK_WriteMem(0x200001E0, 0x0200 Bytes, ...) - Data: 23 60 50 E0 29 4B 40 33 DB 68 01 24 64 02 A3 43 ... -- CPU_WriteMem(512 bytes @ 0x200001E0)  returns 0x200 (0005ms, 6010ms total)
T59E8 8736:227 JLINK_WriteReg(R0, 0x00000E00)  returns 0x00 (0000ms, 6010ms total)
T59E8 8736:227 JLINK_WriteReg(R1, 0x00000200)  returns 0x00 (0000ms, 6010ms total)
T59E8 8736:227 JLINK_WriteReg(R2, 0x200001E0)  returns 0x00 (0000ms, 6010ms total)
T59E8 8736:227 JLINK_WriteReg(R3, 0x00000000)  returns 0x00 (0000ms, 6010ms total)
T59E8 8736:227 JLINK_WriteReg(R4, 0x00000000)  returns 0x00 (0000ms, 6010ms total)
T59E8 8736:227 JLINK_WriteReg(R5, 0x00000000)  returns 0x00 (0000ms, 6010ms total)
T59E8 8736:227 JLINK_WriteReg(R6, 0x00000000)  returns 0x00 (0000ms, 6010ms total)
T59E8 8736:227 JLINK_WriteReg(R7, 0x00000000)  returns 0x00 (0000ms, 6010ms total)
T59E8 8736:227 JLINK_WriteReg(R8, 0x00000000)  returns 0x00 (0000ms, 6010ms total)
T59E8 8736:227 JLINK_WriteReg(R9, 0x200001DC)  returns 0x00 (0000ms, 6010ms total)
T59E8 8736:227 JLINK_WriteReg(R10, 0x00000000)  returns 0x00 (0000ms, 6010ms total)
T59E8 8736:227 JLINK_WriteReg(R11, 0x00000000)  returns 0x00 (0000ms, 6010ms total)
T59E8 8736:227 JLINK_WriteReg(R12, 0x00000000)  returns 0x00 (0000ms, 6010ms total)
T59E8 8736:227 JLINK_WriteReg(R13 (SP), 0x20001000)  returns 0x00 (0000ms, 6010ms total)
T59E8 8736:227 JLINK_WriteReg(R14, 0x20000001)  returns 0x00 (0000ms, 6010ms total)
T59E8 8736:227 JLINK_WriteReg(R15 (PC), 0x2000016A)  returns 0x00 (0000ms, 6010ms total)
T59E8 8736:227 JLINK_WriteReg(XPSR, 0x01000000)  returns 0x00 (0000ms, 6010ms total)
T59E8 8736:227 JLINK_WriteReg(MSP, 0x20001000)  returns 0x00 (0000ms, 6010ms total)
T59E8 8736:227 JLINK_WriteReg(PSP, 0x20001000)  returns 0x00 (0000ms, 6010ms total)
T59E8 8736:227 JLINK_WriteReg(CFBP, 0x00000000)  returns 0x00 (0000ms, 6010ms total)
T59E8 8736:227 JLINK_SetBPEx(Addr = 0x20000000, Type = 0xFFFFFFF2)  returns 0x0000000C (0000ms, 6010ms total)
T59E8 8736:227 JLINK_Go() -- CPU_ReadMem(4 bytes @ 0xE0001000) -- CPU_WriteMem(4 bytes @ 0xE0001000) (0010ms, 6020ms total)
T59E8 8736:237 JLINK_IsHalted()  returns FALSE (0002ms, 6022ms total)
T59E8 8736:240 JLINK_IsHalted()  returns FALSE (0002ms, 6022ms total)
T59E8 8736:243 JLINK_IsHalted()  returns FALSE (0002ms, 6022ms total)
T59E8 8736:246 JLINK_IsHalted()  returns FALSE (0002ms, 6022ms total)
T59E8 8736:249 JLINK_IsHalted()  returns FALSE (0002ms, 6022ms total)
T59E8 8736:252 JLINK_IsHalted()  returns FALSE (0002ms, 6022ms total)
T59E8 8736:255 JLINK_IsHalted() -- CPU_ReadMem(2 bytes @ 0x20000000)  returns TRUE (0007ms, 6027ms total)
T59E8 8736:262 JLINK_ReadReg(R15 (PC))  returns 0x20000000 (0000ms, 6020ms total)
T59E8 8736:262 JLINK_ClrBPEx(BPHandle = 0x0000000C)  returns 0x00 (0000ms, 6020ms total)
T59E8 8736:262 JLINK_ReadReg(R0)  returns 0x00000000 (0000ms, 6020ms total)
T59E8 8736:263 JLINK_WriteMem(0x200001E0, 0x0200 Bytes, ...) - Data: 08 61 08 46 00 68 02 21 88 43 61 00 02 22 11 40 ... -- CPU_WriteMem(512 bytes @ 0x200001E0)  returns 0x200 (0004ms, 6024ms total)
T59E8 8736:267 JLINK_WriteReg(R0, 0x00001000)  returns 0x00 (0000ms, 6024ms total)
T59E8 8736:267 JLINK_WriteReg(R1, 0x00000200)  returns 0x00 (0000ms, 6024ms total)
T59E8 8736:267 JLINK_WriteReg(R2, 0x200001E0)  returns 0x00 (0000ms, 6024ms total)
T59E8 8736:267 JLINK_WriteReg(R3, 0x00000000)  returns 0x00 (0000ms, 6024ms total)
T59E8 8736:267 JLINK_WriteReg(R4, 0x00000000)  returns 0x00 (0000ms, 6024ms total)
T59E8 8736:267 JLINK_WriteReg(R5, 0x00000000)  returns 0x00 (0000ms, 6024ms total)
T59E8 8736:267 JLINK_WriteReg(R6, 0x00000000)  returns 0x00 (0000ms, 6024ms total)
T59E8 8736:267 JLINK_WriteReg(R7, 0x00000000)  returns 0x00 (0000ms, 6024ms total)
T59E8 8736:267 JLINK_WriteReg(R8, 0x00000000)  returns 0x00 (0000ms, 6024ms total)
T59E8 8736:267 JLINK_WriteReg(R9, 0x200001DC)  returns 0x00 (0000ms, 6024ms total)
T59E8 8736:267 JLINK_WriteReg(R10, 0x00000000)  returns 0x00 (0000ms, 6024ms total)
T59E8 8736:267 JLINK_WriteReg(R11, 0x00000000)  returns 0x00 (0000ms, 6024ms total)
T59E8 8736:267 JLINK_WriteReg(R12, 0x00000000)  returns 0x00 (0000ms, 6024ms total)
T59E8 8736:267 JLINK_WriteReg(R13 (SP), 0x20001000)  returns 0x00 (0000ms, 6024ms total)
T59E8 8736:267 JLINK_WriteReg(R14, 0x20000001)  returns 0x00 (0000ms, 6024ms total)
T59E8 8736:267 JLINK_WriteReg(R15 (PC), 0x2000016A)  returns 0x00 (0000ms, 6024ms total)
T59E8 8736:267 JLINK_WriteReg(XPSR, 0x01000000)  returns 0x00 (0000ms, 6024ms total)
T59E8 8736:267 JLINK_WriteReg(MSP, 0x20001000)  returns 0x00 (0000ms, 6024ms total)
T59E8 8736:267 JLINK_WriteReg(PSP, 0x20001000)  returns 0x00 (0000ms, 6024ms total)
T59E8 8736:267 JLINK_WriteReg(CFBP, 0x00000000)  returns 0x00 (0000ms, 6024ms total)
T59E8 8736:267 JLINK_SetBPEx(Addr = 0x20000000, Type = 0xFFFFFFF2)  returns 0x0000000D (0000ms, 6024ms total)
T59E8 8736:267 JLINK_Go() -- CPU_ReadMem(4 bytes @ 0xE0001000) -- CPU_WriteMem(4 bytes @ 0xE0001000) (0009ms, 6033ms total)
T59E8 8736:276 JLINK_IsHalted()  returns FALSE (0003ms, 6036ms total)
T59E8 8736:281 JLINK_IsHalted()  returns FALSE (0002ms, 6035ms total)
T59E8 8736:284 JLINK_IsHalted()  returns FALSE (0002ms, 6035ms total)
T59E8 8736:287 JLINK_IsHalted()  returns FALSE (0002ms, 6035ms total)
T59E8 8736:290 JLINK_IsHalted()  returns FALSE (0002ms, 6035ms total)
T59E8 8736:293 JLINK_IsHalted() -- CPU_ReadMem(2 bytes @ 0x20000000)  returns TRUE (0007ms, 6040ms total)
T59E8 8736:300 JLINK_ReadReg(R15 (PC))  returns 0x20000000 (0000ms, 6033ms total)
T59E8 8736:300 JLINK_ClrBPEx(BPHandle = 0x0000000D)  returns 0x00 (0000ms, 6033ms total)
T59E8 8736:300 JLINK_ReadReg(R0)  returns 0x00000000 (0000ms, 6033ms total)
T59E8 8736:300 JLINK_WriteMem(0x200001E0, 0x0200 Bytes, ...) - Data: FF F7 86 FE 20 46 01 F0 8F F9 C4 B2 08 48 00 68 ... -- CPU_WriteMem(512 bytes @ 0x200001E0)  returns 0x200 (0004ms, 6037ms total)
T59E8 8736:304 JLINK_WriteReg(R0, 0x00001200)  returns 0x00 (0000ms, 6037ms total)
T59E8 8736:304 JLINK_WriteReg(R1, 0x00000200)  returns 0x00 (0000ms, 6037ms total)
T59E8 8736:304 JLINK_WriteReg(R2, 0x200001E0)  returns 0x00 (0000ms, 6037ms total)
T59E8 8736:304 JLINK_WriteReg(R3, 0x00000000)  returns 0x00 (0000ms, 6037ms total)
T59E8 8736:304 JLINK_WriteReg(R4, 0x00000000)  returns 0x00 (0000ms, 6037ms total)
T59E8 8736:304 JLINK_WriteReg(R5, 0x00000000)  returns 0x00 (0000ms, 6037ms total)
T59E8 8736:304 JLINK_WriteReg(R6, 0x00000000)  returns 0x00 (0000ms, 6037ms total)
T59E8 8736:304 JLINK_WriteReg(R7, 0x00000000)  returns 0x00 (0000ms, 6037ms total)
T59E8 8736:304 JLINK_WriteReg(R8, 0x00000000)  returns 0x00 (0000ms, 6037ms total)
T59E8 8736:304 JLINK_WriteReg(R9, 0x200001DC)  returns 0x00 (0000ms, 6037ms total)
T59E8 8736:304 JLINK_WriteReg(R10, 0x00000000)  returns 0x00 (0000ms, 6037ms total)
T59E8 8736:304 JLINK_WriteReg(R11, 0x00000000)  returns 0x00 (0000ms, 6037ms total)
T59E8 8736:304 JLINK_WriteReg(R12, 0x00000000)  returns 0x00 (0000ms, 6037ms total)
T59E8 8736:304 JLINK_WriteReg(R13 (SP), 0x20001000)  returns 0x00 (0000ms, 6037ms total)
T59E8 8736:304 JLINK_WriteReg(R14, 0x20000001)  returns 0x00 (0000ms, 6037ms total)
T59E8 8736:304 JLINK_WriteReg(R15 (PC), 0x2000016A)  returns 0x00 (0000ms, 6037ms total)
T59E8 8736:304 JLINK_WriteReg(XPSR, 0x01000000)  returns 0x00 (0000ms, 6037ms total)
T59E8 8736:304 JLINK_WriteReg(MSP, 0x20001000)  returns 0x00 (0000ms, 6037ms total)
T59E8 8736:304 JLINK_WriteReg(PSP, 0x20001000)  returns 0x00 (0000ms, 6037ms total)
T59E8 8736:304 JLINK_WriteReg(CFBP, 0x00000000)  returns 0x00 (0000ms, 6037ms total)
T59E8 8736:304 JLINK_SetBPEx(Addr = 0x20000000, Type = 0xFFFFFFF2)  returns 0x0000000E (0000ms, 6037ms total)
T59E8 8736:304 JLINK_Go() -- CPU_ReadMem(4 bytes @ 0xE0001000) -- CPU_WriteMem(4 bytes @ 0xE0001000) (0010ms, 6047ms total)
T59E8 8736:314 JLINK_IsHalted()  returns FALSE (0002ms, 6049ms total)
T59E8 8736:319 JLINK_IsHalted()  returns FALSE (0002ms, 6049ms total)
T59E8 8736:322 JLINK_IsHalted()  returns FALSE (0002ms, 6049ms total)
T59E8 8736:325 JLINK_IsHalted()  returns FALSE (0002ms, 6049ms total)
T59E8 8736:329 JLINK_IsHalted()  returns FALSE (0002ms, 6049ms total)
T59E8 8736:332 JLINK_IsHalted() -- CPU_ReadMem(2 bytes @ 0x20000000)  returns TRUE (0008ms, 6055ms total)
T59E8 8736:340 JLINK_ReadReg(R15 (PC))  returns 0x20000000 (0000ms, 6047ms total)
T59E8 8736:340 JLINK_ClrBPEx(BPHandle = 0x0000000E)  returns 0x00 (0000ms, 6047ms total)
T59E8 8736:340 JLINK_ReadReg(R0)  returns 0x00000000 (0000ms, 6047ms total)
T59E8 8736:340 JLINK_WriteMem(0x200001E0, 0x0200 Bytes, ...) - Data: 09 4A 12 69 30 23 9A 43 20 32 07 4B 1A 61 09 E0 ... -- CPU_WriteMem(512 bytes @ 0x200001E0)  returns 0x200 (0004ms, 6051ms total)
T59E8 8736:344 JLINK_WriteReg(R0, 0x00001400)  returns 0x00 (0000ms, 6051ms total)
T59E8 8736:344 JLINK_WriteReg(R1, 0x00000200)  returns 0x00 (0000ms, 6051ms total)
T59E8 8736:344 JLINK_WriteReg(R2, 0x200001E0)  returns 0x00 (0000ms, 6051ms total)
T59E8 8736:344 JLINK_WriteReg(R3, 0x00000000)  returns 0x00 (0000ms, 6051ms total)
T59E8 8736:344 JLINK_WriteReg(R4, 0x00000000)  returns 0x00 (0000ms, 6051ms total)
T59E8 8736:344 JLINK_WriteReg(R5, 0x00000000)  returns 0x00 (0000ms, 6051ms total)
T59E8 8736:344 JLINK_WriteReg(R6, 0x00000000)  returns 0x00 (0000ms, 6051ms total)
T59E8 8736:344 JLINK_WriteReg(R7, 0x00000000)  returns 0x00 (0000ms, 6051ms total)
T59E8 8736:344 JLINK_WriteReg(R8, 0x00000000)  returns 0x00 (0000ms, 6051ms total)
T59E8 8736:344 JLINK_WriteReg(R9, 0x200001DC)  returns 0x00 (0000ms, 6051ms total)
T59E8 8736:344 JLINK_WriteReg(R10, 0x00000000)  returns 0x00 (0000ms, 6051ms total)
T59E8 8736:344 JLINK_WriteReg(R11, 0x00000000)  returns 0x00 (0000ms, 6051ms total)
T59E8 8736:344 JLINK_WriteReg(R12, 0x00000000)  returns 0x00 (0000ms, 6051ms total)
T59E8 8736:344 JLINK_WriteReg(R13 (SP), 0x20001000)  returns 0x00 (0000ms, 6051ms total)
T59E8 8736:344 JLINK_WriteReg(R14, 0x20000001)  returns 0x00 (0000ms, 6051ms total)
T59E8 8736:344 JLINK_WriteReg(R15 (PC), 0x2000016A)  returns 0x00 (0000ms, 6051ms total)
T59E8 8736:344 JLINK_WriteReg(XPSR, 0x01000000)  returns 0x00 (0000ms, 6051ms total)
T59E8 8736:344 JLINK_WriteReg(MSP, 0x20001000)  returns 0x00 (0000ms, 6051ms total)
T59E8 8736:344 JLINK_WriteReg(PSP, 0x20001000)  returns 0x00 (0000ms, 6051ms total)
T59E8 8736:344 JLINK_WriteReg(CFBP, 0x00000000)  returns 0x00 (0000ms, 6051ms total)
T59E8 8736:344 JLINK_SetBPEx(Addr = 0x20000000, Type = 0xFFFFFFF2)  returns 0x0000000F (0000ms, 6051ms total)
T59E8 8736:344 JLINK_Go() -- CPU_ReadMem(4 bytes @ 0xE0001000) -- CPU_WriteMem(4 bytes @ 0xE0001000) (0011ms, 6062ms total)
T59E8 8736:355 JLINK_IsHalted()  returns FALSE (0002ms, 6064ms total)
T59E8 8736:360 JLINK_IsHalted()  returns FALSE (0002ms, 6064ms total)
T59E8 8736:363 JLINK_IsHalted()  returns FALSE (0002ms, 6064ms total)
T59E8 8736:366 JLINK_IsHalted()  returns FALSE (0002ms, 6064ms total)
T59E8 8736:371 JLINK_IsHalted() -- CPU_ReadMem(2 bytes @ 0x20000000)  returns TRUE (0007ms, 6069ms total)
T59E8 8736:378 JLINK_ReadReg(R15 (PC))  returns 0x20000000 (0000ms, 6062ms total)
T59E8 8736:378 JLINK_ClrBPEx(BPHandle = 0x0000000F)  returns 0x00 (0000ms, 6062ms total)
T59E8 8736:378 JLINK_ReadReg(R0)  returns 0x00000000 (0000ms, 6062ms total)
T59E8 8736:378 JLINK_WriteMem(0x200001E0, 0x0200 Bytes, ...) - Data: 10 22 91 43 08 4A 51 60 11 46 08 60 00 BF 06 49 ... -- CPU_WriteMem(512 bytes @ 0x200001E0)  returns 0x200 (0004ms, 6066ms total)
T59E8 8736:382 JLINK_WriteReg(R0, 0x00001600)  returns 0x00 (0000ms, 6066ms total)
T59E8 8736:382 JLINK_WriteReg(R1, 0x00000200)  returns 0x00 (0000ms, 6066ms total)
T59E8 8736:382 JLINK_WriteReg(R2, 0x200001E0)  returns 0x00 (0000ms, 6066ms total)
T59E8 8736:382 JLINK_WriteReg(R3, 0x00000000)  returns 0x00 (0000ms, 6066ms total)
